date Mon Jan 8 10:00:00.000 2026
base hex  timestamps absolute
internal events logged
Begin Triggerblock Mon Jan 8 10:00:00.000 2026
   0.000000 1  100             Rx   d 8 00 00 19 28 02 00 00 00
   0.010000 1  200             Rx   d 8 00 00 00 00 00 00 00 00
   0.020000 1  300             Rx   d 8 B0 04 00 00 19 32 00 00
   0.030000 1  100             Rx   d 8 00 04 1A 2D 02 00 00 00
   0.040000 1  200             Rx   d 8 E8 03 00 03 00 00 00 00
   0.050000 1  300             Rx   d 8 B0 04 00 00 1A 34 00 00
   0.060000 1  100             Rx   d 8 00 08 1B 32 02 00 00 00
   0.070000 1  200             Rx   d 8 D0 07 00 03 00 00 00 00
   0.080000 1  300             Rx   d 8 AE 04 F6 FF 1B 36 00 00
   0.090000 1  100             Rx   d 8 00 0C 1C 37 02 00 00 00
   0.100000 1  200             Rx   d 8 B8 0B 00 03 00 00 00 00
   0.110000 1  300             Rx   d 8 AC 04 EC FF 1C 38 00 00
   0.120000 1  100             Rx   d 8 00 10 1D 3C 02 00 00 00
   0.130000 1  200             Rx   d 8 A0 0F 14 03 00 00 00 00
   0.140000 1  300             Rx   d 8 AA 04 E2 FF 1D 3A 00 00
   0.150000 1  100             Rx   d 8 00 14 1E 41 02 00 00 00
   0.160000 1  200             Rx   d 8 88 13 14 03 00 00 00 00
   0.170000 1  300             Rx   d 8 A8 04 D8 FF 1E 3C 00 00
   0.180000 1  100             Rx   d 8 00 18 1F 46 03 00 00 00
   0.190000 1  200             Rx   d 8 70 17 14 03 00 00 00 00
   0.200000 1  300             Rx   d 8 A6 04 CE FF 1F 3E 00 00
   0.210000 1  100             Rx   d 8 00 1C 20 4B 03 00 00 00
   0.220000 1  200             Rx   d 8 58 1B 14 03 00 00 00 00
   0.230000 1  300             Rx   d 8 A4 04 C4 FF 20 40 00 00
   0.240000 1  100             Rx   d 8 00 20 21 50 03 00 00 00
   0.250000 1  200             Rx   d 8 40 1F 14 03 00 00 00 00
   0.260000 1  300             Rx   d 8 A2 04 BA FF 21 42 00 00
   0.270000 1  100             Rx   d 8 00 24 22 55 03 00 00 00
   0.280000 1  200             Rx   d 8 28 23 1E 03 00 00 00 00
   0.290000 1  300             Rx   d 8 A0 04 B0 FF 22 44 00 00
   0.300000 1  100             Rx   d 8 00 28 23 5A 03 00 00 00
   0.310000 1  200             Rx   d 8 10 27 1E 03 00 00 00 00
   0.320000 1  300             Rx   d 8 9E 04 A6 FF 23 46 00 00
   0.330000 1  100             Rx   d 8 00 2C 24 5F 03 00 00 00
   0.340000 1  200             Rx   d 8 F8 2A 28 03 00 00 00 00
   0.350000 1  300             Rx   d 8 9C 04 9C FF 24 48 00 00
   0.360000 1  100             Rx   d 8 00 30 25 64 03 00 00 00
   0.370000 1  200             Rx   d 8 E0 2E 28 03 00 00 00 00
   0.380000 1  300             Rx   d 8 9A 04 92 FF 25 4A 00 00
   0.390000 1  100             Rx   d 8 00 34 26 69 03 00 00 00
   0.400000 1  200             Rx   d 8 C8 32 28 03 00 00 00 00
   0.410000 1  300             Rx   d 8 98 04 88 FF 26 4C 00 00
   0.420000 1  100             Rx   d 8 00 38 27 6E 03 00 00 00
   0.430000 1  200             Rx   d 8 B0 36 28 03 00 00 00 00
   0.440000 1  300             Rx   d 8 96 04 7E FF 27 4E 00 00
   0.450000 1  100             Rx   d 8 00 3C 28 73 03 00 00 00
   0.460000 1  200             Rx   d 8 98 3A 32 03 00 00 00 00
   0.470000 1  300             Rx   d 8 94 04 74 FF 28 50 00 00
   0.480000 1  100             Rx   d 8 00 40 29 78 03 00 00 00
   0.490000 1  200             Rx   d 8 80 3E 32 03 00 00 00 00
   0.500000 1  300             Rx   d 8 92 04 6A FF 29 52 00 00
   0.510000 1  100             Rx   d 8 00 44 2A 7D 03 00 00 00
   0.520000 1  200             Rx   d 8 68 42 32 03 00 00 00 00
   0.530000 1  300             Rx   d 8 90 04 60 FF 2A 54 00 00
   0.540000 1  100             Rx   d 8 00 48 2B 82 03 00 00 00
   0.550000 1  200             Rx   d 8 50 46 32 03 01 00 00 00
   0.560000 1  300             Rx   d 8 8E 04 56 FF 2B 56 00 00
   0.570000 1  100             Rx   d 8 00 4C 2C 87 03 00 00 00
   0.580000 1  200             Rx   d 8 38 4A 3C 03 01 00 00 00
   0.590000 1  300             Rx   d 8 8C 04 4C FF 2C 58 00 00
   0.600000 1  100             Rx   d 8 00 50 2D 8C 03 00 00 00
   0.610000 1  200             Rx   d 8 20 4E 3C 03 01 00 00 00
   0.620000 1  300             Rx   d 8 8A 04 42 FF 2D 5A 00 00
   0.630000 1  100             Rx   d 8 00 54 2E 91 03 00 00 00
   0.640000 1  200             Rx   d 8 08 52 3C 03 01 00 00 00
   0.650000 1  300             Rx   d 8 88 04 38 FF 2E 5C 00 00
   0.660000 1  100             Rx   d 8 00 58 2F 96 03 00 00 00
   0.670000 1  200             Rx   d 8 F0 55 46 03 01 00 00 00
   0.680000 1  300             Rx   d 8 86 04 2E FF 2F 5E 00 00
   0.690000 1  100             Rx   d 8 00 5C 30 9B 03 00 00 00
   0.700000 1  200             Rx   d 8 D8 59 46 03 01 00 00 00
   0.710000 1  300             Rx   d 8 84 04 24 FF 30 60 00 00
   0.720000 1  100             Rx   d 8 00 60 31 A0 02 00 00 00
   0.730000 1  200             Rx   d 8 C0 5D 46 03 01 00 00 00
   0.740000 1  300             Rx   d 8 82 04 1A FF 31 62 00 00
   0.750000 1  100             Rx   d 8 00 64 32 A5 02 00 00 00
   0.760000 1  200             Rx   d 8 A8 61 50 03 02 00 00 00
   0.770000 1  300             Rx   d 8 80 04 10 FF 32 64 00 00
   0.780000 1  100             Rx   d 8 00 68 33 AA 02 00 00 00
   0.790000 1  200             Rx   d 8 90 65 50 03 02 00 00 00
   0.800000 1  300             Rx   d 8 7E 04 06 FF 33 66 00 00
   0.810000 1  100             Rx   d 8 00 6C 34 AF 02 00 00 00
   0.820000 1  200             Rx   d 8 78 69 50 03 02 00 00 00
   0.830000 1  300             Rx   d 8 7C 04 FC FE 34 68 00 00
   0.840000 1  100             Rx   d 8 00 70 35 B4 02 00 00 00
   0.850000 1  200             Rx   d 8 60 6D 5A 03 02 00 00 00
   0.860000 1  300             Rx   d 8 7A 04 F2 FE 35 6A 00 00
   0.870000 1  100             Rx   d 8 00 74 36 B9 02 00 00 00
   0.880000 1  200             Rx   d 8 48 71 5A 03 02 00 00 00
   0.890000 1  300             Rx   d 8 78 04 E8 FE 36 6C 00 00
   0.900000 1  100             Rx   d 8 00 78 37 BE 02 00 00 00
   0.910000 1  200             Rx   d 8 30 75 5A 03 02 00 00 00
   0.920000 1  300             Rx   d 8 76 04 DE FE 37 6E 00 00
   0.930000 1  100             Rx   d 8 00 7C 38 C3 02 00 00 00
   0.940000 1  200             Rx   d 8 18 79 64 03 02 00 00 00
   0.950000 1  300             Rx   d 8 74 04 D4 FE 38 70 00 00
   0.960000 1  100             Rx   d 8 00 80 39 C8 02 00 00 00
   0.970000 1  200             Rx   d 8 00 7D 64 03 00 00 00 00
   0.980000 1  300             Rx   d 8 72 04 CA FE 39 72 00 00
   0.990000 1  100             Rx   d 8 00 84 3A CD 02 00 00 00
   1.000000 1  200             Rx   d 8 E8 80 64 03 00 00 00 00
End TriggerBlock

